/vref_c (temperature=0) X,/vref_c (temperature=0) Y,/vref_c (temperature=27) X,/vref_c (temperature=27) Y,/vref_c (temperature=100) X,/vref_c (temperature=100) Y,/vref_p (temperature=0) X,/vref_p (temperature=0) Y,/vref_p (temperature=27) X,/vref_p (temperature=27) Y,/vref_p (temperature=100) X,/vref_p (temperature=100) Y
0,3.552692981290124e-09,0,1.881789812598783e-09,0,5.63212143764056e-10,0,2.518676603504303e-11,0,3.805311623962497e-11,0,7.913325959235027e-11
0.001,0.000997740356250543,0.001,0.0009992101930951104,0.001,0.0009996821210228532,0.001,7.918479527228627e-06,0.001,2.250438903650753e-05,0.001,0.0001548625640875538
0.002,0.001995610893811652,0.002,0.001998458762879039,0.002,0.002002297065865459,0.002,1.61042296479648e-05,0.002,4.56394956374083e-05,0.002,0.0003122305586289728
0.003,0.002993601263664034,0.003,0.002997744152213916,0.003,0.003001867532840172,0.003,2.456060890511894e-05,0.003,6.940964000095478e-05,0.003,0.0004723331903795046
0.004,0.003991696949472799,0.004,0.003997062225067169,0.004,0.004001507465356225,0.004,3.32909444555152e-05,0.004,9.381906491449684e-05,0.004,0.0006350569703625968
0.005,0.004989886597370086,0.005,0.00499640927117741,0.005,0.005001132991199295,0.005,4.229856605074753e-05,0.005,0.0001188719942324708,0.005,0.0008004007201577892
0.006,0.005988158016542146,0.006,0.006001988435002841,0.006,0.006000765920224626,0.006,5.158681544582602e-05,0.006,0.0001445695479783841,0.006,0.0009683639181390977
0.007,0.006994404629418233,0.007,0.007001151486412479,0.007,0.007000400987268701,0.007,6.115856874445667e-05,0.007,0.0001709219887124714,0.007,0.001138946192784893
0.008,0.007992523434392921,0.008,0.008000459960824892,0.008,0.008000037932952148,0.008,7.101814574342952e-05,0.008,0.0001979307110223142,0.008,0.00131214734223449
0.009000000000000001,0.008990868984528317,0.009000000000000001,0.008999781598509332,0.009000000000000001,0.008999676448374147,0.009000000000000001,8.116854848983488e-05,0.009000000000000001,0.0002256000794343276,0.009000000000000001,0.001487967356214423
0.01,0.009989252433257628,0.01,0.009999116237741808,0.01,0.009999316235419513,0.01,9.161327198728063e-05,0.01,0.0002539345610060995,0.01,0.001666406436337632
0.011,0.01098766960178761,0.011,0.01099846142798603,0.011,0.01099895700332005,0.011,0.0001023558796129271,0.011,0.000282938744118773,0.011,0.001847465016019549
0.012,0.01198611309624284,0.012,0.01199781492693928,0.012,0.01199859846974616,0.012,0.0001134000151078984,0.012,0.0003126173644960628,0.012,0.0020311437798559
0.013,0.01298457649249965,0.013,0.01299717469843006,0.013,0.01299824036113447,0.013,0.0001247494156724864,0.013,0.000342975331217772,0.013,0.002217443679799721
0.01400000000000001,0.01398305431687144,0.01400000000000001,0.01399653895848208,0.01400000000000001,0.0139978824162783,0.01400000000000001,0.0001364079255090468,0.01400000000000001,0.0003740177533034504,0.01400000000000001,0.002406365953085172
0.01500000000000001,0.01498154225203019,0.01500000000000001,0.01499590620613104,0.01500000000000001,0.01499752438766683,0.01500000000000001,0.0001483795095555534,0.01500000000000001,0.000405749966704222,0.01500000000000001,0.002597912137931637
0.01600000000000001,0.01598003720032289,0.01600000000000001,0.0159952752674907,0.01600000000000001,0.01599716604384065,0.01600000000000001,0.0001606682677043475,0.01600000000000001,0.0004381775607689643,0.01600000000000001,0.00279208408475784
0.01700000000000001,0.01697853725809551,0.01700000000000001,0.0169946453193526,0.01700000000000001,0.01699680717577048,0.01700000000000001,0.0001732784492501494,0.01700000000000001,0.0004713064064536499,0.01700000000000001,0.002988883973133201
0.01800000000000001,0.01797704167361563,0.01800000000000001,0.01799401585658694,0.01800000000000001,0.01799644759484645,0.01800000000000001,0.0001862144670739773,0.01800000000000001,0.0005051426818129146,0.01800000000000001,0.003188314319231528
0.01900000000000001,0.01897555061734856,0.01900000000000001,0.01899338669576994,0.01900000000000001,0.01899608713489778,0.01900000000000001,0.0001994809128997183,0.01900000000000001,0.0005396929005509385,0.01900000000000001,0.003390377988383501
0.02000000000000001,0.01997406507473275,0.02000000000000001,0.01999275791037084,0.02000000000000001,0.01999572565442327,0.02000000000000001,0.0002130825717050808,0.02000000000000001,0.000574963937226462,0.02000000000000001,0.00359507820413985
0.02100000000000001,0.02097258655658059,0.02100000000000001,0.02099212978908965,0.02100000000000001,0.02099536303383743,0.02100000000000001,0.0002270244367437638,0.02100000000000001,0.0006109630550673329,0.02100000000000001,0.003802418551452631
0.02200000000000001,0.02197111695081025,0.02200000000000001,0.021991502789646,0.02200000000000001,0.02199499916904554,0.02200000000000001,0.0002413117245043797,0.02200000000000001,0.0006476979304852283,0.02200000000000001,0.004012402988029478
0.02300000000000001,0.02296965833699,0.02300000000000001,0.02299087746177616,0.02300000000000001,0.02299463397729463,0.02300000000000001,0.0002559498892148162,0.02300000000000001,0.0006851766795940354,0.02300000000000001,0.004225035839201474
0.02400000000000001,0.02396821285280298,0.02400000000000001,0.02399025443930098,0.02400000000000001,0.02399426738551505,0.02400000000000001,0.0002709446379345465,0.02400000000000001,0.0007234078829212096,0.02400000000000001,0.004440321809867697
0.02500000000000002,0.02496678263109776,0.02500000000000002,0.02498963437931031,0.02500000000000002,0.02499389933131523,0.02500000000000002,0.0002863019450929691,0.02500000000000002,0.0007624006077374434,0.02500000000000002,0.004658265976041173
0.02600000000000002,0.02596536967664551,0.02600000000000002,0.02598901794065648,0.02600000000000002,0.02599352976122224,0.02600000000000002,0.0003020280665266497,0.02600000000000002,0.0008021644349210865,0.02600000000000002,0.004878873792116768
0.02700000000000002,0.02696397587900378,0.02700000000000002,0.0269884057677775,0.02700000000000002,0.02699315862104579,0.02700000000000002,0.0003181295551233883,0.02700000000000002,0.0008427094765691985,0.02700000000000002,0.00510215107654881
0.02800000000000002,0.027962602956493,0.02800000000000002,0.02798779847846165,0.02800000000000002,0.02799278586579705,0.02800000000000002,0.0003346132725330492,0.02800000000000002,0.0008840464022838435,0.02800000000000002,0.005328104011102648
0.02900000000000002,0.02896125243997753,0.02900000000000002,0.02898719664612181,0.02900000000000002,0.02899241144271413,0.02900000000000002,0.0003514864055350966,0.02900000000000002,0.0009261864567435389,0.02900000000000002,0.005556739135704189
0.03000000000000002,0.02995992568423079,0.03000000000000002,0.02998660080198792,0.03000000000000002,0.02999203530369848,0.03000000000000002,0.0003687564778450971,0.03000000000000002,0.0009691414789251383,0.03000000000000002,0.005788063340475319
0.03100000000000002,0.03095862387125625,0.03100000000000002,0.03098601142964181,0.03100000000000002,0.03099165739577746,0.03100000000000002,0.0003864313646886525,0.03100000000000002,0.001012923922922622,0.03100000000000002,0.006022083838326671
0.03200000000000002,0.03195734800556454,0.03200000000000002,0.03198542896368217,0.03200000000000002,0.03199127766285866,0.03200000000000002,0.0004045193047349888,0.03200000000000002,0.001057546870111141,0.03200000000000002,0.006258808165826418
0.03300000000000002,0.03295609892887661,0.03300000000000002,0.03298485379559984,0.03300000000000002,0.03299089604235884,0.03300000000000002,0.0004230289142151773,0.03300000000000002,0.001103024055075873,0.03300000000000002,0.006498244168546153
0.03400000000000002,0.033954877348504,0.03400000000000002,0.03398428626755026,0.03400000000000002,0.03399051247438879,0.03400000000000002,0.0004419691982881067,0.03400000000000002,0.001149369865291837,0.03400000000000002,0.006740399956808155
0.03500000000000002,0.03495368380979268,0.03500000000000002,0.03498372667939673,0.03500000000000002,0.03499012688139718,0.03500000000000002,0.0004613495640540913,0.03500000000000002,0.001196599368791287,0.03500000000000002,0.0069852839283744
0.03600000000000003,0.03595251875095606,0.03600000000000003,0.03598317528687391,0.03600000000000003,0.03598973919069872,0.03600000000000003,0.0004811798324316375,0.03600000000000003,0.001244728317730693,0.03600000000000003,0.007232904685638507
0.03700000000000003,0.03695138248528198,0.03700000000000003,0.03698263231616314,0.03700000000000003,0.03698934932432527,0.03700000000000003,0.0005014702500258016,0.03700000000000003,0.001293773164138612,0.03700000000000003,0.007483271064952566
0.03800000000000003,0.0379502752146858,0.03800000000000003,0.03798209794326933,0.03800000000000003,0.03798895718403583,0.03800000000000003,0.0005222315000811131,0.03800000000000003,0.001343751066302262,0.03800000000000003,0.007736392070831592
0.03900000000000003,0.03894919704492947,0.03900000000000003,0.03898157232356474,0.03900000000000003,0.03898856268879389,0.03900000000000003,0.000543474716036765,0.03900000000000003,0.001394679893610267,0.03900000000000003,0.007992276870700846
0.04000000000000003,0.03994814800639749,0.04000000000000003,0.03998105557420228,0.04000000000000003,0.0399881657289732,0.04000000000000003,0.000565211489740733,0.04000000000000003,0.001446578252050507,0.04000000000000003,0.008250934711752377
0.04100000000000003,0.04094712804757775,0.04100000000000003,0.04098054779042912,0.04100000000000003,0.04098776620333407,0.04100000000000003,0.0005874538841569189,0.04100000000000003,0.001499465457829526,0.04100000000000003,0.008512374962931538
0.04200000000000003,0.04194613702086307,0.04200000000000003,0.04198004902698034,0.04200000000000003,0.04198736399668911,0.04200000000000003,0.0006102144444376319,0.04200000000000003,0.001553361573447515,0.04200000000000003,0.008776606993342361
0.04300000000000003,0.04294517474300524,0.04300000000000003,0.04297955932813629,0.04300000000000003,0.04298695898967132,0.04300000000000003,0.0006335062079150611,0.04300000000000003,0.001608287395743307,0.04300000000000003,0.009043640183034069
0.04400000000000003,0.04394424097676455,0.04400000000000003,0.04397907872131585,0.04400000000000003,0.04398655106383143,0.04400000000000003,0.0006573427160544915,0.04400000000000003,0.00166426445523658,0.04400000000000003,0.00931348385294028
0.04500000000000003,0.04494333540562368,0.04500000000000003,0.04497860718239138,0.04500000000000003,0.04498614007875765,0.04500000000000003,0.0006817380216031664,0.04500000000000003,0.001721315022374637,0.04500000000000003,0.009586147232717623
0.04600000000000003,0.04594245770306849,0.04600000000000003,0.04597814469939727,0.04600000000000003,0.04598572590663486,0.04600000000000003,0.0007067067055300582,0.04600000000000003,0.00177946211036877,0.04600000000000003,0.009861639423245696
0.04700000000000003,0.04694160746841657,0.04700000000000003,0.04697769122899138,0.04700000000000003,0.04698530839613399,0.04700000000000003,0.0007322638779493877,0.04700000000000003,0.001838729467028864,0.04700000000000003,0.01013996929287486
0.04800000000000004,0.04794078429053139,0.04800000000000004,0.04797724671059099,0.04800000000000004,0.04798488740348164,0.04800000000000004,0.0007584251980249471,0.04800000000000004,0.001899141572614874,0.04800000000000004,0.01042114548098774
0.04900000000000004,0.04893998771320306,0.04900000000000004,0.04897681108321327,0.04900000000000004,0.04898446277609072,0.04900000000000004,0.0007852068768241343,0.04900000000000004,0.001960723636842603,0.04900000000000004,0.01070517632643262
0.05000000000000004,0.04993921726528486,0.05000000000000004,0.04997638424870166,0.05000000000000004,0.04998403434389075,0.05000000000000004,0.0008126256906806318,0.05000000000000004,0.002023501589824736,0.05000000000000004,0.0109920698126193
0.05100000000000004,0.05093847243329691,0.05100000000000004,0.0509759661025384,0.05100000000000004,0.05098360195406626,0.05100000000000004,0.0008406989929291974,0.05100000000000004,0.002087502088006158,0.05100000000000004,0.0112818334856506
0.05200000000000004,0.05193775270793447,0.05200000000000004,0.05197555655317023,0.05200000000000004,0.05198316542554806,0.05200000000000004,0.0008694447169289056,0.05200000000000004,0.002152752488165308,0.05200000000000004,0.01157447446797792
0.05300000000000004,0.05293705754142548,0.05300000000000004,0.05297515545882156,0.05300000000000004,0.05298272458532152,0.05300000000000004,0.0008988813921428114,0.05300000000000004,0.002219280842986134,0.05300000000000004,0.01186999932914012
0.05400000000000004,0.05393638638318979,0.05400000000000004,0.05397476269673817,0.05400000000000004,0.05398227925434076,0.05400000000000004,0.0009290281525485721,0.05400000000000004,0.002287115906893959,0.05400000000000004,0.0121684140778948
0.05500000000000004,0.05493573865659367,0.05500000000000004,0.0549743781301859,0.05500000000000004,0.05498182924591726,0.05500000000000004,0.0009599047420917176,0.05500000000000004,0.002356287098560841,0.05500000000000004,0.01246972404611334
0.05600000000000004,0.05593511379976449,0.05600000000000004,0.055974001605083,0.05600000000000004,0.05598137437077207,0.05600000000000004,0.0009915315270371883,0.05600000000000004,0.002426824504327885,0.05600000000000004,0.01277393394592226
0.05700000000000004,0.05693451120750313,0.05700000000000004,0.05697363297019695,0.05700000000000004,0.05698091443535741,0.05700000000000004,0.001023929502609615,0.05700000000000004,0.002498758850185283,0.05700000000000004,0.01308104769980676
0.05800000000000004,0.05793393030693123,0.05800000000000004,0.05797327206169883,0.05800000000000004,0.05798044923886076,0.05800000000000004,0.001057120304431639,0.05800000000000004,0.00257212151265085,0.05800000000000004,0.01339106848689557
0.05900000000000005,0.05893337048267264,0.05900000000000005,0.05897291871578044,0.05900000000000005,0.05897997858217169,0.05900000000000005,0.001091126208365573,0.05900000000000005,0.002646944462096267,0.05900000000000005,0.0137039986960245
0.06000000000000005,0.05993283115165273,0.06000000000000005,0.05997257275268526,0.06000000000000005,0.05997950226291665,0.06000000000000005,0.001125970147741967,0.06000000000000005,0.002723260263026091,0.06000000000000005,0.01401983977253143
0.06100000000000005,0.06093231170667004,0.06100000000000005,0.06097223401304035,0.06100000000000005,0.06097902007010096,0.06100000000000005,0.001161675707904484,0.06100000000000005,0.002801102069549382,0.06100000000000005,0.01433859229443653
0.06200000000000005,0.06193181153945305,0.06200000000000005,0.06197190231983626,0.06200000000000005,0.06197853178917754,0.06200000000000005,0.001198267149667183,0.06200000000000005,0.002880503580489293,0.06200000000000005,0.01466025593113103
0.06300000000000004,0.06293133005636545,0.06300000000000004,0.06297157747719745,0.06300000000000004,0.06297803720282151,0.06300000000000004,0.001235769393923548,0.06300000000000004,0.002961499017720185,0.06300000000000004,0.01498482941800463
0.06400000000000004,0.06393086666662594,0.06400000000000004,0.06397125932881401,0.06400000000000004,0.06397753610278134,0.06400000000000004,0.00127420803556216,0.06400000000000004,0.003044123111109624,0.06400000000000004,0.0153123104024249
0.06500000000000004,0.06493042074404447,0.06500000000000004,0.06497094768971198,0.06500000000000004,0.06497702824951779,0.06500000000000004,0.00131360935158489,0.06500000000000004,0.003128411073222734,0.06500000000000004,0.0156426955802257
0.06600000000000004,0.06592999174456682,0.06600000000000004,0.06597064237235176,0.06600000000000004,0.06597651343353887,0.06600000000000004,0.00135400029953626,0.06600000000000004,0.003214398557828725,0.06600000000000004,0.01597598069281012
0.06700000000000005,0.06692957906553008,0.06700000000000005,0.06697034322940437,0.06700000000000005,0.06697599141107181,0.06700000000000005,0.001395408510414221,0.06700000000000005,0.003302121657127379,0.06700000000000005,0.01631216038813593
0.06800000000000005,0.06792918211802701,0.06800000000000005,0.06797005005984637,0.06800000000000005,0.06797546195209592,0.06800000000000005,0.001437862296107482,0.06800000000000005,0.003391616838464992,0.06800000000000005,0.01665122820791289
0.06900000000000005,0.06892880036632242,0.06900000000000005,0.06896976272385187,0.06900000000000005,0.06897492482204681,0.06900000000000005,0.001481390652011532,0.06900000000000005,0.003482920956809413,0.06900000000000005,0.01699317680193681
0.07000000000000005,0.06992843324332512,0.07000000000000005,0.06996948104456817,0.07000000000000005,0.06997437976777318,0.07000000000000005,0.001526023248803543,0.07000000000000005,0.003576071170948103,0.07000000000000005,0.01733799764129061
0.07100000000000005,0.0709280801846115,0.07100000000000005,0.07096920485858169,0.07100000000000005,0.07097647398597946,0.07100000000000005,0.001571790429468399,0.07100000000000005,0.003671104973424486,0.07100000000000005,0.01768594681787393
0.07200000000000005,0.07192774069147646,0.07200000000000005,0.07196893403907451,0.07200000000000005,0.07197599758050607,0.07200000000000005,0.001618723206011538,0.07200000000000005,0.003768060093818611,0.07200000000000005,0.01803648707494572
0.07300000000000005,0.07292741422884003,0.07300000000000005,0.07296866842857457,0.07300000000000005,0.07297551266078085,0.07300000000000005,0.001666853253341364,0.07300000000000005,0.00386697452109013,0.07300000000000005,0.01838986819085286
0.07400000000000005,0.07392710031722859,0.07400000000000005,0.07396840788373636,0.07400000000000005,0.07397501894053994,0.07400000000000005,0.001716212900590828,0.07400000000000005,0.003967886443224719,0.07400000000000005,0.01874607753244744
0.07500000000000005,0.07492679843390004,0.07500000000000005,0.07496815228035296,0.07500000000000005,0.07497451612444747,0.07500000000000005,0.00176683512068762,0.07500000000000005,0.004070834201454634,0.07500000000000005,0.01910510143949722
0.07600000000000005,0.07592650813792703,0.07600000000000005,0.07596790150230466,0.07600000000000005,0.07597400390939228,0.07600000000000005,0.001818753533160455,0.07600000000000005,0.004175856286627182,0.07600000000000005,0.01946692523400732
0.07700000000000005,0.07692622897851385,0.07700000000000005,0.07696765541582823,0.07700000000000005,0.07697348198426897,0.07700000000000005,0.001872002354233413,0.07700000000000005,0.004282991252730507,0.07700000000000005,0.01983153323073548
0.07800000000000006,0.07792596050090406,0.07800000000000006,0.07796741393930071,0.07800000000000006,0.07797295002982683,0.07800000000000006,0.001926616455381557,0.07800000000000006,0.004392277736163981,0.07800000000000006,0.02019890874890665
0.07900000000000006,0.07892570232600529,0.07900000000000006,0.07896717692602719,0.07900000000000006,0.07897240771843918,0.07900000000000006,0.001982631268343211,0.07900000000000006,0.004503754380590145,0.07900000000000006,0.02056903412510419
0.08000000000000006,0.07992545403075103,0.08000000000000006,0.07996694433144441,0.08000000000000006,0.07997185471396946,0.08000000000000006,0.002040082816071829,0.08000000000000006,0.004617459766448887,0.08000000000000006,0.0209418907272996
0.08100000000000006,0.08092521524713292,0.08100000000000006,0.08096671602480085,0.08100000000000006,0.08097128684929229,0.08100000000000006,0.002099007683772141,0.08100000000000006,0.004733432444197411,0.08100000000000006,0.02131745897014606
0.08200000000000006,0.08192498561464194,0.08200000000000006,0.08196649194498497,0.08200000000000006,0.0819707062920806,0.08200000000000006,0.002159442994987388,0.08200000000000006,0.004851710817980756,0.08200000000000006,0.02169571833137267
0.08300000000000006,0.08292476481330285,0.08300000000000006,0.0829662720201365,0.08300000000000006,0.08297011384128908,0.08300000000000006,0.002221426386514314,0.08300000000000006,0.004972333099080743,0.08300000000000006,0.02207664736972588
0.08400000000000006,0.08392455249701188,0.08400000000000006,0.0839660561453512,0.08400000000000006,0.083969509121526,0.08400000000000006,0.002284995979369606,0.08400000000000006,0.005095337295639941,0.08400000000000006,0.02246022374419469
