/vref_c (temperature=0) X,/vref_c (temperature=0) Y,/vref_c (temperature=27) X,/vref_c (temperature=27) Y,/vref_c (temperature=100) X,/vref_c (temperature=100) Y,/vref_p (temperature=0) X,/vref_p (temperature=0) Y,/vref_p (temperature=27) X,/vref_p (temperature=27) Y,/vref_p (temperature=100) X,/vref_p (temperature=100) Y
0,3.559257146411583e-09,0,1.884187342835865e-09,0,5.636080999413699e-10,0,2.522324523058826e-11,0,3.808962936064162e-11,0,7.917379712688501e-11
3.062316593127104e-13,-8.219188321900629e-06,3.062311520789007e-13,-7.473165038856925e-06,3.062375921300226e-13,-5.77654574590645e-06,3.062316593127104e-13,-3.785648108707484e-06,3.062311520789007e-13,-3.40789343190681e-06,3.062375921300226e-13,-2.588178850975317e-06
3.576648171575175e-13,-9.784264504424929e-06,3.596483216518048e-13,-8.964624710747707e-06,3.653359856598034e-13,-7.082525514268613e-06,3.576648171575175e-13,-4.478081510544112e-06,3.596483216518048e-13,-4.061724089991647e-06,3.653359856598034e-13,-3.151303071798908e-06
4.605311328471318e-13,-1.316744659793907e-05,4.664826607976132e-13,-1.222352014894618e-05,4.835327727193652e-13,-1.00086911922945e-05,4.605311328471318e-13,-5.853135263397182e-06,4.664826607976132e-13,-5.37452712005905e-06,4.835327727193652e-13,-4.310313840688873e-06
5.09427319408913e-13,-1.485576387701096e-05,5.164437175809184e-13,-1.38408782045426e-05,5.366216774323633e-13,-1.143664052069949e-05,5.09427319408913e-13,-6.469228185325499e-06,5.164437175809184e-13,-5.960813437388297e-06,5.366216774323633e-13,-4.821403901013224e-06
5.598626668388504e-13,-1.660835823663991e-05,5.677274449942383e-13,-1.552396538157357e-05,5.901607408764353e-13,-1.291835467244441e-05,5.598626668388504e-13,-7.05663729918316e-06,5.677274449942383e-13,-6.522923268795067e-06,5.901607408764353e-13,-5.313381996745893e-06
6.12639075402475e-13,-1.84210097364712e-05,6.214480068977752e-13,-1.728001872421017e-05,6.465180918643724e-13,-1.449617379213451e-05,6.12639075402475e-13,-7.615383051403996e-06,6.214480068977752e-13,-7.064053107285974e-06,6.465180918643724e-13,-5.80061831935097e-06
6.689632856888737e-13,-2.030738647668525e-05,6.783060386869905e-13,-1.9106754722876e-05,7.048830280629743e-13,-1.612805760453952e-05,6.689632856888737e-13,-8.161856583160839e-06,6.783060386869905e-13,-7.594141066663774e-06,7.048830280629743e-13,-6.27819949824846e-06
7.241933399316412e-13,-2.209589302214896e-05,7.343943158072877e-13,-2.086237531353802e-05,7.63537234226126e-13,-1.775065884262988e-05,7.241933399316412e-13,-8.669737957984552e-06,7.343943158072877e-13,-8.093040949533898e-06,7.63537234226126e-13,-6.743876734141899e-06
7.820113536308656e-13,-2.389675992545757e-05,7.936470323453946e-13,-2.265855584149549e-05,8.274371414028377e-13,-1.948708942956191e-05,7.820113536308656e-13,-9.198488397100635e-06,7.936470323453946e-13,-8.618402036725591e-06,8.274371414028377e-13,-7.254315508969971e-06
8.50698715052144e-13,-2.593925219978257e-05,8.656169799517265e-13,-2.475462281415125e-05,9.021975677173807e-13,-2.146816898806211e-05,8.50698715052144e-13,-9.857476759353644e-06,8.656169799517265e-13,-9.287849260350654e-06,9.021975677173807e-13,-7.881595353463224e-06
9.157153642108886e-13,-2.777756746580519e-05,9.319872960996059e-13,-2.66041764174528e-05,9.712870031367816e-13,-2.324654950150132e-05,9.157153642108886e-13,-1.053705117525572e-05,9.319872960996059e-13,-9.958966808883767e-06,9.712870031367816e-13,-8.508324776848487e-06
9.796143681269864e-13,-2.949847064445859e-05,9.958682257675124e-13,-2.83111542053259e-05,1.034086337003687e-12,-2.481866458872197e-05,9.796143681269864e-13,-1.127384478813137e-05,9.958682257675124e-13,-1.066798532888073e-05,1.034086337003687e-12,-9.127038958586253e-06
1.034538752972518e-12,-3.091204978805079e-05,1.051206235821649e-12,-2.973300138929418e-05,1.090631534653331e-12,-2.619724666859955e-05,1.034538752972518e-12,-1.196714884634741e-05,1.051206235821649e-12,-1.133698160008152e-05,1.090631534653331e-12,-9.72727201275102e-06
1.085724612899622e-12,-3.217749545148104e-05,1.103305954098572e-12,-3.102539475973911e-05,1.145456714807927e-12,-2.750091449548546e-05,1.085724612899622e-12,-1.26631287588512e-05,1.103305954098572e-12,-1.20130128023501e-05,1.145456714807927e-12,-1.034734592090349e-05
1.13730980297791e-12,-3.340449660241029e-05,1.156362984590866e-12,-3.229725932217564e-05,1.202817650039121e-12,-2.883075640350412e-05,1.13730980297791e-12,-1.340870779302039e-05,1.156362984590866e-12,-1.274282002347923e-05,1.202817650039121e-12,-1.103107914619543e-05
1.192943702133292e-12,-3.467598043043629e-05,1.214573208620578e-12,-3.364338335543623e-05,1.269001772061646e-12,-3.03229091220955e-05,1.192943702133292e-12,-1.425215227479417e-05,1.214573208620578e-12,-1.358056611094844e-05,1.269001772061646e-12,-1.185160449638732e-05
1.259401021987295e-12,-3.612789647090911e-05,1.282234215832377e-12,-3.514616004925896e-05,1.341449128077424e-12,-3.190594563674071e-05,1.259401021987295e-12,-1.528996189869533e-05,1.282234215832377e-12,-1.458017492033046e-05,1.341449128077424e-12,-1.276588556243698e-05
1.330710154755601e-12,-3.760895216866464e-05,1.356330739005114e-12,-3.671910709624267e-05,1.427244520166932e-12,-3.371507024061539e-05,1.330710154755601e-12,-1.640384847623479e-05,1.356330739005114e-12,-1.567042223582648e-05,1.427244520166932e-12,-1.383095410272621e-05
1.407573205255034e-12,-3.912117577264588e-05,1.431539680880031e-12,-3.824161564177198e-05,1.501599626962287e-12,-3.52273679886667e-05,1.407573205255034e-12,-1.755744242165227e-05,1.431539680880031e-12,-1.673172424986403e-05,1.501599626962287e-12,-1.470936064382967e-05
1.474057736140015e-12,-4.036232196721988e-05,1.498713028153784e-12,-3.954124179775254e-05,1.571875600514503e-12,-3.661126919094635e-05,1.474057736140015e-12,-1.848413813861766e-05,1.498713028153784e-12,-1.761337160902596e-05,1.571875600514503e-12,-1.548254290737911e-05
1.538718908949351e-12,-4.151332229506301e-05,1.565340634174738e-12,-4.077716643423892e-05,1.640641434965156e-12,-3.7923657994865e-05,1.538718908949351e-12,-1.930231787102157e-05,1.565340634174738e-12,-1.840949194364687e-05,1.640641434965156e-12,-1.617742613052199e-05
1.60270945553671e-12,-4.260024885986844e-05,1.628716943403058e-12,-4.190536939222399e-05,1.704392049124675e-12,-3.910466515126504e-05,1.60270945553671e-12,-2.002473987077857e-05,1.628716943403058e-12,-1.909059710537671e-05,1.704392049124675e-12,-1.676930579694159e-05
1.662054890096542e-12,-4.356406883812216e-05,1.688858775389815e-12,-4.293502151366599e-05,1.768973507673033e-12,-4.026714086918353e-05,1.662054890096542e-12,-2.062237456708061e-05,1.688858775389815e-12,-1.967466458177498e-05,1.768973507673033e-12,-1.732712146853157e-05
1.721755110986994e-12,-4.449262742502379e-05,1.750725998392142e-12,-4.395421996013902e-05,1.840549866996735e-12,-4.151687569735521e-05,1.721755110986994e-12,-2.116736004308171e-05,1.750725998392142e-12,-2.022699228010046e-05,1.840549866996735e-12,-1.791465149282538e-05
1.786747600249805e-12,-4.54588216071465e-05,1.820198216469025e-12,-4.5052342275909e-05,1.936503069334863e-12,-4.313080721229739e-05,1.786747600249805e-12,-2.172057508832164e-05,1.820198216469025e-12,-2.0814245595942e-05,1.936503069334863e-12,-1.869158458392245e-05
1.868558740748421e-12,-4.661219725937055e-05,1.917459494534641e-12,-4.651145715645965e-05,2.047207154475999e-12,-4.490892531565977e-05,1.868558740748421e-12,-2.240201937563421e-05,1.917459494534641e-12,-2.163437747707509e-05,2.047207154475999e-12,-1.962059551189742e-05
1.968514871188977e-12,-4.793180786788153e-05,2.017508738417593e-12,-4.792202670251934e-05,2.128488580819367e-12,-4.615946432093397e-05,1.968514871188977e-12,-2.327326288225676e-05,2.017508738417593e-12,-2.252598352591984e-05,2.128488580819367e-12,-2.034085862760722e-05
2.046829271232331e-12,-4.890041929935968e-05,2.093361130211192e-12,-4.893340407091414e-05,2.204869777506121e-12,-4.72934928206185e-05,2.046829271232331e-12,-2.401032494006689e-05,2.093361130211192e-12,-2.325071672263956e-05,2.204869777506121e-12,-2.105019741830757e-05
2.117438421242882e-12,-4.972740180025047e-05,2.165585310502735e-12,-4.9852021194918e-05,2.284110020974366e-12,-4.842946190698726e-05,2.117438421242882e-12,-2.472237372310253e-05,2.165585310502735e-12,-2.398156389803164e-05,2.284110020974366e-12,-2.181251974298604e-05
2.188727660123447e-12,-5.051993836555213e-05,2.240182925641188e-12,-5.075755039483526e-05,2.368542126429711e-12,-4.959608181464523e-05,2.188727660123447e-12,-2.548078191282084e-05,2.240182925641188e-12,-2.476868945228516e-05,2.368542126429711e-12,-2.263908466952366e-05
2.265417307889138e-12,-5.132745125857579e-05,2.319349982197734e-12,-5.167267874741676e-05,2.463886595213828e-12,-5.086123061257582e-05,2.265417307889138e-12,-2.63237616335843e-05,2.319349982197734e-12,-2.562117817264178e-05,2.463886595213828e-12,-2.356639209397639e-05
2.344818010892136e-12,-5.211684573366462e-05,2.405562370260484e-12,-5.261810790467507e-05,2.578934743871186e-12,-5.231719765418192e-05,2.344818010892136e-12,-2.720211865682266e-05,2.405562370260484e-12,-2.654352435247552e-05,2.578934743871186e-12,-2.464424760987359e-05
2.437461666845675e-12,-5.298133702983643e-05,2.512427303303296e-12,-5.372011483888984e-05,2.687030873803505e-12,-5.361773864045088e-05,2.437461666845675e-12,-2.820065799438344e-05,2.512427303303296e-12,-2.764030327762667e-05,2.687030873803505e-12,-2.559698262627746e-05
2.535714497770474e-12,-5.383557652002003e-05,2.612034671828798e-12,-5.468132831648269e-05,2.780402141545457e-12,-5.469092739559292e-05,2.535714497770474e-12,-2.919746309898526e-05,2.612034671828798e-12,-2.859256351300161e-05,2.780402141545457e-12,-2.636915171642384e-05
2.631537540321017e-12,-5.461041989714936e-05,2.701530909292927e-12,-5.549379786129683e-05,2.873870427149102e-12,-5.572029861041341e-05,2.631537540321017e-12,-3.009043070632012e-05,2.701530909292927e-12,-2.938273076340195e-05,2.873870427149102e-12,-2.710069964182518e-05
2.7160316028088e-12,-5.52488903302997e-05,2.787484381584986e-12,-5.623079804099609e-05,2.977271259862124e-12,-5.680903963138391e-05,2.7160316028088e-12,-3.08108526066662e-05,2.787484381584986e-12,-3.008678175060581e-05,2.977271259862124e-12,-2.78785803902969e-05
2.800409855610269e-12,-5.584700109189644e-05,2.879324189627641e-12,-5.697399137050096e-05,3.101823948856803e-12,-5.805405686285837e-05,2.800409855610269e-12,-3.147579764408032e-05,2.879324189627641e-12,-3.079438797125185e-05,3.101823948856803e-12,-2.88028876295779e-05
2.895461669014067e-12,-5.647649907007617e-05,2.982874583293227e-12,-5.77602355700861e-05,3.218473367554724e-12,-5.91572282087493e-05,2.895461669014067e-12,-3.218133436534327e-05,2.982874583293227e-12,-3.156467548024038e-05,3.218473367554724e-12,-2.967885945767345e-05
3.002847925819694e-12,-5.71349625625606e-05,3.094078091230667e-12,-5.85471792411388e-05,3.333899188506731e-12,-6.019199524518158e-05,3.002847925819694e-12,-3.295879857292521e-05,3.094078091230667e-12,-3.239257532889677e-05,3.333899188506731e-12,-3.056499725281929e-05
3.105933274453491e-12,-5.771783647475397e-05,3.198031508548183e-12,-5.923218821768511e-05,3.444188423662245e-12,-6.113024697519879e-05,3.105933274453491e-12,-3.371579308621673e-05,3.198031508548183e-12,-3.31871817452716e-05,3.444188423662245e-12,-3.14247711343164e-05
3.206510886459159e-12,-5.824318583044703e-05,3.306652156728918e-12,-5.989895325751698e-05,3.559315614472014e-12,-6.205965155761343e-05,3.206510886459159e-12,-3.448089694138897e-05,3.306652156728918e-12,-3.404360628934115e-05,3.559315614472014e-12,-3.232037131302293e-05
3.309359979565114e-12,-5.873912885806326e-05,3.409020887932378e-12,-6.048433084555145e-05,3.709285806759538e-12,-6.319807789261323e-05,3.309359979565114e-12,-3.528975501646021e-05,3.409020887932378e-12,-3.486478943327488e-05,3.709285806759538e-12,-3.345341095383481e-05
3.409061497232997e-12,-5.918273711473624e-05,3.518723996462079e-12,-6.10681764827031e-05,3.835458076658798e-12,-6.409566324316482e-05,3.409061497232997e-12,-3.608473340581049e-05,3.518723996462079e-12,-3.57377469309263e-05,3.835458076658798e-12,-3.436261781177072e-05
3.520173110509082e-12,-5.963712614216117e-05,3.646515963998189e-12,-6.169555468387716e-05,3.961862230014897e-12,-6.494274733812117e-05,3.520173110509082e-12,-3.695610181054741e-05,3.646515963998189e-12,-3.671484453818803e-05,3.961862230014897e-12,-3.523095727276398e-05
3.636516455967427e-12,-6.00710154074134e-05,3.758470308939154e-12,-6.220148833064488e-05,4.097146970190318e-12,-6.579471696925084e-05,3.636516455967427e-12,-3.782455834121556e-05,3.758470308939154e-12,-3.752082372988012e-05,4.097146970190318e-12,-3.61237784763599e-05
3.742968791736804e-12,-6.043309857430885e-05,3.872511071349119e-12,-6.267773607191007e-05,4.258099776874775e-12,-6.673924306974306e-05,3.742968791736804e-12,-3.856696345758952e-05,3.872511071349119e-12,-3.82918545839707e-05,4.258099776874775e-12,-3.71600858985093e-05
3.854263219686245e-12,-6.077862938907532e-05,3.996807428651407e-12,-6.315497706201457e-05,4.404838024489529e-12,-6.753868608844027e-05,3.854263219686245e-12,-3.929018525219467e-05,3.996807428651407e-12,-3.90871327177232e-05,4.404838024489529e-12,-3.809565310650253e-05
3.975832571270039e-12,-6.112045180611728e-05,4.140092239381982e-12,-6.365505676628739e-05,4.543005782480717e-12,-6.824094796314407e-05,3.975832571270039e-12,-4.003340656814649e-05,4.140092239381982e-12,-3.997177984040282e-05,4.543005782480717e-12,-3.897310575661726e-05
4.1188184411889e-12,-6.147895325107857e-05,4.273998285600207e-12,-6.407746730967899e-05,4.701878439472453e-12,-6.89916572982492e-05,4.1188184411889e-12,-4.087515667690862e-05,4.273998285600207e-12,-4.07876143980831e-05,4.701878439472453e-12,-3.997123800764442e-05
4.245012047261389e-12,-6.175935993741237e-05,4.395962924583688e-12,-6.442711618810517e-05,4.896410060169372e-12,-6.983457593418304e-05,4.245012047261389e-12,-4.160888594811078e-05,4.395962924583688e-12,-4.152990162791393e-05,4.896410060169372e-12,-4.115935757351366e-05
4.361530316020137e-12,-6.199064087245982e-05,4.52706867848976e-12,-6.476866087484878e-05,5.064649666184069e-12,-7.050033091810369e-05,4.361530316020137e-12,-4.228710559031493e-05,4.52706867848976e-12,-4.232479076886786e-05,5.064649666184069e-12,-4.214644718251267e-05
4.487403866358458e-12,-6.221335986671978e-05,4.690012688270227e-12,-6.514807195462502e-05,5.224511336622713e-12,-7.108216780869207e-05,4.487403866358458e-12,-4.30181987342356e-05,4.690012688270227e-12,-4.329195167440186e-05,5.224511336622713e-12,-4.304860149059157e-05
4.644009640334223e-12,-6.245501310802137e-05,4.860588978643198e-12,-6.549638797663548e-05,5.419521460142365e-12,-7.17301281654688e-05,4.644009640334223e-12,-4.390850695408527e-05,4.860588978643198e-12,-4.42597808293247e-05,5.419521460142365e-12,-4.411140453146865e-05
4.808055248191022e-12,-6.267001334789662e-05,4.999518418718429e-12,-6.57460713989416e-05,5.696521215246912e-12,-7.254483003184504e-05,4.808055248191022e-12,-4.479681335867405e-05,4.999518418718429e-12,-4.500742015928551e-05,5.696521215246912e-12,-4.557172248631151e-05
4.940416245693553e-12,-6.281750339477368e-05,5.144262054921918e-12,-6.597655812940316e-05,5.890624880765323e-12,-7.304718525280719e-05,4.940416245693553e-12,-4.547259181666292e-05,5.144262054921918e-12,-4.574954821358364e-05,5.890624880765323e-12,-4.656441931313743e-05
5.076078948380364e-12,-6.294686818884421e-05,5.340628698716184e-12,-6.62457384331446e-05,6.10671494822007e-12,-7.354642906927474e-05,5.076078948380364e-12,-4.61281821630316e-05,5.340628698716184e-12,-4.671316321544609e-05,6.10671494822007e-12,-4.763671085250815e-05
5.249316006440603e-12,-6.308333594110303e-05,5.534346394778934e-12,-6.646697542759653e-05,6.456917756794619e-12,-7.423731341043502e-05,5.249316006440603e-12,-4.69247929768716e-05,5.534346394778934e-12,-4.763103341760856e-05,6.456917756794619e-12,-4.929019730915265e-05
5.451504018579124e-12,-6.320644286292982e-05,5.693886677084117e-12,-6.661862780726893e-05,6.704783554584809e-12,-7.464569780247096e-05,5.451504018579124e-12,-4.781830108717934e-05,5.693886677084117e-12,-4.836695049627871e-05,6.704783554584809e-12,-5.039847635281534e-05
5.603705690425114e-12,-6.327537813874055e-05,5.870506925014115e-12,-6.675842824765437e-05,6.995034633614982e-12,-7.504956162133485e-05,5.603705690425114e-12,-4.847143436867322e-05,5.870506925014115e-12,-4.91575462237592e-05,6.995034633614982e-12,-5.163841840833003e-05
5.762661086712158e-12,-6.332865598538766e-05,6.1518158839025e-12,-6.692889828146155e-05,7.443736642732747e-12,-7.553968480416017e-05,5.762661086712158e-12,-4.913449414671298e-05,6.1518158839025e-12,-5.035017402548985e-05,7.443736642732747e-12,-5.344515523356617e-05
5.991889573460331e-12,-6.337675966019457e-05,6.353465025316218e-12,-6.701533768165871e-05,7.788126770748718e-12,-7.581799822905711e-05,5.991889573460331e-12,-5.004465004573698e-05,6.353465025316218e-12,-5.115239495249259e-05,7.788126770748718e-12,-5.474320379121728e-05
6.192307887848753e-12,-6.339413225176073e-05,6.554746717200324e-12,-6.707550338163689e-05,8.47690702678066e-12,-7.617629012026662e-05,6.192307887848753e-12,-5.079027528816386e-05,6.554746717200324e-12,-5.191318944978986e-05,8.47690702678066e-12,-5.712186847993278e-05
6.369755538707762e-12,-6.339216263548084e-05,6.868227757539813e-12,-6.712530087357988e-05,9.007100747196271e-12,-7.630194378463332e-05,6.369755538707762e-12,-5.141289542388674e-05,6.868227757539813e-12,-5.303250575819095e-05,9.007100747196271e-12,-5.876886992158642e-05
6.586733844331935e-12,-6.337095220876492e-05,7.124946146796998e-12,-6.713119632542947e-05,1.003069078995559e-11,-7.628729697197769e-05,6.586733844331935e-12,-5.213432061348736e-05,7.124946146796998e-12,-5.389428737203527e-05,1.003069078995559e-11,-6.15525037504001e-05
6.894594740179913e-12,-6.331139445420289e-05,7.382697794643304e-12,-6.711035500460294e-05,1.097382212604479e-11,-7.605163102467691e-05,6.894594740179913e-12,-5.309482313631853e-05,7.382697794643304e-12,-5.471015819612152e-05,1.097382212604479e-11,-6.370340465179942e-05
7.116943084153328e-12,-6.324937715015722e-05,7.722137756460869e-12,-6.704898385824611e-05,1.286008479822318e-11,-7.523003695864531e-05,7.116943084153328e-12,-5.374396917939394e-05,7.722137756460869e-12,-5.57098384026113e-05,1.286008479822318e-11,-6.704188811218596e-05
7.388353292368704e-12,-6.315622684322231e-05,8.042405880371705e-12,-6.696130935116641e-05,1.502887526090803e-11,-7.398199686655237e-05,7.388353292368704e-12,-5.448475777129764e-05,8.042405880371705e-12,-5.657993643139614e-05,1.502887526090803e-11,-6.962239177357172e-05
7.769004606371496e-12,-6.300002359508864e-05,8.428865670039169e-12,-6.682500350176122e-05,1.744693677264375e-11,-7.243473008070103e-05,7.769004606371496e-12,-5.543258456956361e-05,8.428865670039169e-12,-5.754446980623198e-05,1.744693677264375e-11,-7.131725034592607e-05
8.067903987110524e-12,-6.286012530594781e-05,8.94535756741143e-12,-6.660287442993766e-05,2.022851783520926e-11,-7.060688606330845e-05,8.067903987110524e-12,-5.610849103912738e-05,8.94535756741143e-12,-5.870010404952968e-05,2.022851783520926e-11,-7.218303460479041e-05
8.576871130834701e-12,-6.259449571475644e-05,9.447532479075546e-12,-6.63514755788886e-05,2.327427305228109e-11,-6.862112042367599e-05,8.576871130834701e-12,-5.713724236185437e-05,9.447532479075546e-12,-5.96883275419334e-05,2.327427305228109e-11,-7.223592071896441e-05
9.011031030521778e-12,-6.234847746829626e-05,1.038406255754254e-11,-6.582714550151492e-05,2.668463767160072e-11,-6.644209727277566e-05,9.011031030521778e-12,-5.790273872686431e-05,1.038406255754254e-11,-6.122493336751111e-05,2.668463767160072e-11,-7.159067227168856e-05
9.584969942711948e-12,-6.200518357369437e-05,1.126074326825877e-11,-6.529100516028884e-05,3.060076361702814e-11,-6.399627770317494e-05,9.584969942711948e-12,-5.877271759192868e-05,1.126074326825877e-11,-6.234912023389295e-05,3.060076361702814e-11,-7.030638974983066e-05
